[[2025-Oct-23 09:31:35] [debug] --------------------------------------------------------------------------------
[2025-Oct-23 09:31:35] [debug] nrfjprog --program build/merged.hex --sectoranduicrerase --verify -f nrf52 --log 
[2025-Oct-23 09:31:35] [debug] nrfjprog version 10.24.2 external
[2025-Oct-23 09:31:35] [debug] --------------------------------------------------------------------------------
[2025-Oct-23 09:31:35] [ info] Load library at /Applications/Nordic Semiconductor/lib/libnrfjprogdll.dylib.
[2025-Oct-23 09:31:35] [ info] Library loaded, loading member functions.
[2025-Oct-23 09:31:35] [ info] Member functions succesfully loaded.
[2025-Oct-23 09:31:35] [debug] [ Client] - open
[2025-Oct-23 09:31:35] [debug] [ Client] - start
[2025-Oct-23 09:31:35] [ info] [ Client] - stdout: Jlinkarm nRF Worker ready. Handling sequence dcd7a965-44e8-4d79-9e7e-054b27f6da19.
[2025-Oct-23 09:31:35] [trace] [ Client] - Command open executed for 34 milliseconds with result 0
[2025-Oct-23 09:31:35] [debug] [ Client] - config
[2025-Oct-23 09:31:35] [debug] [SeggerBackend] - Logger sink registered in Segger backend logger
[2025-Oct-23 09:31:35] [debug] [  JLink] - Logger sink registered in JLink logger
[2025-Oct-23 09:31:35] [debug] [  nRF52] - open
[2025-Oct-23 09:31:35] [debug] [  nRF52] - just_check_family
[2025-Oct-23 09:31:35] [debug] [SeggerBackend] - open_dll
[2025-Oct-23 09:31:35] [debug] [SeggerBackend] - No J-Link DLL path was provided. Attempting to auto detect.
[2025-Oct-23 09:31:35] [ info] [SeggerBackend] - Load library at /Applications/SEGGER/JLink/libjlinkarm.dylib.
[2025-Oct-23 09:31:35] [ info] [SeggerBackend] - Library loaded, loading member functions.
[2025-Oct-23 09:31:35] [ info] [SeggerBackend] - Member functions succesfully loaded.
[2025-Oct-23 09:31:35] [debug] [SeggerBackend] - Set batch mode
[2025-Oct-23 09:31:35] [debug] [SeggerBackend] - dll_version
[2025-Oct-23 09:31:35] [trace] [ Client] - Command config executed for 12 milliseconds with result 0
[2025-Oct-23 09:31:35] [ info] [SeggerBackend] - Segger dll version 7.94.e loaded.
[2025-Oct-23 09:31:35] [trace] [ Worker] - Command open executed for 5 milliseconds with result 0
[2025-Oct-23 09:31:35] [debug] [  nRF52] - config
[2025-Oct-23 09:31:35] [debug] [SeggerBackend] - enum_emu_snr
[2025-Oct-23 09:31:35] [trace] [ Worker] - Command config executed for 4 milliseconds with result 0
[2025-Oct-23 09:31:35] [debug] [ Client] - enum_emu_snr
[2025-Oct-23 09:31:35] [trace] [ Client] - Command enum_emu_con_info executed for 6 milliseconds with result 0
[2025-Oct-23 09:31:35] [debug] [ Client] - connect_to_emu_with_snr
[2025-Oct-23 09:31:35] [debug] [  nRF52] - enum_emu_con_info
[2025-Oct-23 09:31:35] [debug] [SeggerBackend] - is_connected_to_emu
[2025-Oct-23 09:31:35] [debug] [SeggerBackend] - enum_emu_con_info
[2025-Oct-23 09:31:35] [debug] [SeggerBackend] - is_connected_to_emu
[2025-Oct-23 09:31:35] [trace] [ Worker] - Command enum_emu_con_info executed for 0 milliseconds with result 0
[2025-Oct-23 09:31:35] [debug] [  nRF52] - connect_to_emu_with_snr
[2025-Oct-23 09:31:35] [debug] [SeggerBackend] - is_connected_to_emu
[2025-Oct-23 09:31:35] [debug] [SeggerBackend] - connect_to_emu_with_snr
[2025-Oct-23 09:31:35] [debug] [SeggerBackend] - is_connected_to_emu
[2025-Oct-23 09:31:35] [debug] [SeggerBackend] - ---just_enum_emu_snr
[2025-Oct-23 09:31:35] [debug] [SeggerBackend] - ---just_get_num_emus
[2025-Oct-23 09:31:35] [debug] [SeggerBackend] - ---just_connect_to_emu_with_snr
[2025-Oct-23 09:31:35] [debug] [SeggerBackend] - ---just_connect_to_emu_without_snr
[2025-Oct-23 09:31:35] [debug] [SeggerBackend] - Segger logging enabled.
[2025-Oct-23 09:31:35] [trace] [  JLink] - Firmware: J-Link OB-nRF5340-NordicSemi compiled Apr 11 2024 17:44:26
[2025-Oct-23 09:31:35] [trace] [  JLink] - Firmware: J-Link OB-nRF5340-NordicSemi compiled Apr 11 2024 17:44:26
[2025-Oct-23 09:31:35] [trace] [  JLink] - Hardware: V1.00
[2025-Oct-23 09:31:35] [trace] [  JLink] - S/N: 1050257150
[2025-Oct-23 09:31:35] [trace] [  JLink] - OEM: SEGGER
[2025-Oct-23 09:31:35] [trace] [  JLink] - Feature(s): RDI, FlashBP, FlashDL, JFlash, GDB
[2025-Oct-23 09:31:35] [trace] [  JLink] - Bootloader: 2021 May 18
[2025-Oct-23 09:31:35] [trace] [  JLink] - USB speed mode: Full speed (12 MBit/s)
[2025-Oct-23 09:31:35] [trace] [  JLink] - TELNET listener socket opened on port 19021
[2025-Oct-23 09:31:35] [trace] [  JLink] - WEBSRV WEBSRV_Init(): Starting webserver thread(s)
[2025-Oct-23 09:31:35] [trace] [  JLink] - WEBSRV Webserver running on local port 19080
[2025-Oct-23 09:31:35] [trace] [  JLink] - Looking for J-Link GUI Server exe at: /Applications/SEGGER/JLink_V794e/JLinkGUIServerExe 
[2025-Oct-23 09:31:35] [trace] [  JLink] - Forking J-Link GUI Server: /Applications/SEGGER/JLink_V794e/JLinkGUIServerExe 
[2025-Oct-23 09:31:36] [trace] [  JLink] - J-Link GUI Server info: "J-Link GUI server V7.94e " 
[2025-Oct-23 09:31:36] [trace] [ Client] - Command connect_to_emu_with_snr executed for 650 milliseconds with result 0
[2025-Oct-23 09:31:36] [debug] [ Client] - read_connected_emu_snr
[2025-Oct-23 09:31:36] [trace] [  JLink] - - 613.054ms returns "O.K."  
[2025-Oct-23 09:31:36] [trace] [  JLink] - JLINK_HasError()  
[2025-Oct-23 09:31:36] [trace] [  JLink] - JLINK_Lock()  
[2025-Oct-23 09:31:36] [trace] [  JLink] - JLINK_ExecCommand("SetRestartOnClose = 0", ...).   
[2025-Oct-23 09:31:36] [trace] [  JLink] - - 0.163ms returns 0x01  
[2025-Oct-23 09:31:36] [trace] [  JLink] - JLINK_HasError()  
[2025-Oct-23 09:31:36] [trace] [  JLink] - JLINK_ExecCommand("DisableFlashDL", ...).   
[2025-Oct-23 09:31:36] [trace] [  JLink] - - 0.001ms returns 0x00  
[2025-Oct-23 09:31:36] [trace] [  JLink] - JLINK_HasError()  
[2025-Oct-23 09:31:36] [trace] [  JLink] - JLINK_ExecCommand("ExcludeFlashCacheRange 0x0-0xFFFFFFFF", ...).   
[2025-Oct-23 09:31:36] [trace] [  JLink] - - 0.151ms returns 0x00  
[2025-Oct-23 09:31:36] [trace] [  JLink] - JLINK_HasError()  
[2025-Oct-23 09:31:36] [trace] [  JLink] - JLINK_SetHookUnsecureDialog  
[2025-Oct-23 09:31:36] [trace] [  JLink] - JLINK_SetHookUnsecureDialog(...)
[2025-Oct-23 09:31:36] [trace] [  JLink] - - 0.004ms returns 0  
[2025-Oct-23 09:31:36] [trace] [  JLink] - JLINK_HasError()  
[2025-Oct-23 09:31:36] [trace] [  JLink] - JLINK_TIF_Select(JLINKARM_TIF_SWD)  
[2025-Oct-23 09:31:36] [trace] [  JLink] - - 0.625ms returns 0x00  
[2025-Oct-23 09:31:36] [trace] [  JLink] - JLINK_HasError()  
[2025-Oct-23 09:31:36] [trace] [  JLink] - JLINK_GetSpeedInfo()  
[2025-Oct-23 09:31:36] [trace] [  JLink] - 128000000 Hz / n, n >= 64
[2025-Oct-23 09:31:36] [trace] [  JLink] - - 0.003ms  
[2025-Oct-23 09:31:36] [trace] [  JLink] - JLINK_HasError()  
[2025-Oct-23 09:31:36] [debug] [SeggerBackend] - Connected emulator supports SWD speeds up to 2000kHz
[2025-Oct-23 09:31:36] [trace] [  JLink] - JLINK_SetSpeed(2000)  
[2025-Oct-23 09:31:36] [trace] [  JLink] - - 0.196ms  
[2025-Oct-23 09:31:36] [trace] [  JLink] - JLINK_HasError()  
[2025-Oct-23 09:31:36] [trace] [  JLink] - JLINK_GetSpeed()  
[2025-Oct-23 09:31:36] [trace] [  JLink] - - 0.001ms returns 2000  
[2025-Oct-23 09:31:36] [trace] [  JLink] - JLINK_HasError()  
[2025-Oct-23 09:31:36] [debug] [SeggerBackend] - SWD clock set to 2000kHz
[2025-Oct-23 09:31:36] [trace] [  JLink] - JLINK_GetSN()  
[2025-Oct-23 09:31:36] [trace] [  JLink] - - 0.000ms returns 1050257150  
[2025-Oct-23 09:31:36] [trace] [  JLink] - JLINK_HasError()  
[2025-Oct-23 09:31:36] [trace] [  JLink] - - 0.002ms  
[2025-Oct-23 09:31:36] [debug] [  nRF52] - read_device_family
[2025-Oct-23 09:31:36] [trace] [ Worker] - Command connect_to_emu_with_snr executed for 639 milliseconds with result 0
[2025-Oct-23 09:31:36] [debug] [  nRF52] - read_connected_emu_snr
[2025-Oct-23 09:31:36] [debug] [SeggerBackend] - is_connected_to_emu
[2025-Oct-23 09:31:36] [trace] [  JLink] - JLINK_IsOpen()  
[2025-Oct-23 09:31:36] [trace] [  JLink] - - 0.002ms returns 0x01  
[2025-Oct-23 09:31:36] [trace] [  JLink] - JLINK_HasError()  
[2025-Oct-23 09:31:36] [trace] [  JLink] - JLINK_Lock()  
[2025-Oct-23 09:31:36] [debug] [SeggerBackend] - read_connected_emu_snr
[2025-Oct-23 09:31:36] [trace] [  JLink] - - 0.001ms  
[2025-Oct-23 09:31:36] [trace] [ Worker] - Command read_connected_emu_snr executed for 0 milliseconds with result 0
[2025-Oct-23 09:31:36] [trace] [ Client] - Command read_connected_emu_snr executed for 12 milliseconds with result 0
[2025-Oct-23 09:31:36] [debug] [ Client] - read_device_info
[2025-Oct-23 09:31:36] [debug] [  nRF52] - read_device_info
[2025-Oct-23 09:31:36] [debug] [SeggerBackend] - is_connected_to_emu
[2025-Oct-23 09:31:36] [trace] [  JLink] - JLINK_IsOpen()  
[2025-Oct-23 09:31:36] [trace] [  JLink] - - 0.004ms returns 0x01  
[2025-Oct-23 09:31:36] [trace] [  JLink] - JLINK_HasError()  
[2025-Oct-23 09:31:36] [trace] [  JLink] - JLINK_Lock()  
[2025-Oct-23 09:31:36] [debug] [  nRF52] - Just_read_device_version
[2025-Oct-23 09:31:36] [debug] [  nRF52] - Just_readback_status
[2025-Oct-23 09:31:36] [debug] [  nRF52] - Just_is_ctrl_ap_available
[2025-Oct-23 09:31:36] [debug] [SeggerBackend] - read_access_port_register
[2025-Oct-23 09:31:36] [debug] [SeggerBackend] - ---just_read_access_port_register
[2025-Oct-23 09:31:36] [debug] [SeggerBackend] - coresight_configure
[2025-Oct-23 09:31:36] [trace] [  JLink] - JLINK_GetHWStatus(...)  
[2025-Oct-23 09:31:36] [trace] [  JLink] - - 0.145ms returns 0  
[2025-Oct-23 09:31:36] [trace] [  JLink] - JLINK_HasError()  
[2025-Oct-23 09:31:36] [trace] [  JLink] - JLINK_CORESIGHT_Configure()  
[2025-Oct-23 09:31:36] [trace] [  JLink] - - 0.395ms returns 0  
[2025-Oct-23 09:31:36] [trace] [  JLink] - JLINK_HasError()  
[2025-Oct-23 09:31:36] [debug] [SeggerBackend] - read_debug_port_idr
[2025-Oct-23 09:31:36] [debug] [SeggerBackend] - read_debug_port_register
[2025-Oct-23 09:31:36] [debug] [SeggerBackend] - ---just_read_debug_port_register
[2025-Oct-23 09:31:36] [debug] [SeggerBackend] - ---just_select_debug_port_register
[2025-Oct-23 09:31:36] [debug] [SeggerBackend] - Select AP 255, DP Bank 0, AP Bank 255
[2025-Oct-23 09:31:36] [trace] [  JLink] - JLINK_CORESIGHT_WriteAPDPReg(DP reg 0x02, 0x00000000)  
[2025-Oct-23 09:31:36] [trace] [  JLink] - - 0.168ms returns 0  
[2025-Oct-23 09:31:36] [trace] [  JLink] - JLINK_HasError()  
[2025-Oct-23 09:31:36] [trace] [  JLink] - JLINK_CORESIGHT_ReadAPDPReg(DP reg 0x00)  
[2025-Oct-23 09:31:36] [trace] [  JLink] - Value=0x2BA01477
[2025-Oct-23 09:31:36] [trace] [  JLink] - - 0.164ms returns 0  
[2025-Oct-23 09:31:36] [trace] [  JLink] - JLINK_HasError()  
[2025-Oct-23 09:31:36] [debug] [SeggerBackend] - ---just_is_debug_region_powered
[2025-Oct-23 09:31:36] [trace] [ Client] - Command read_device_info executed for 25 milliseconds with result 0
[2025-Oct-23 09:31:36] [debug] [ Client] - read_memory_descriptors
[2025-Oct-23 09:31:36] [trace] [ Client] - Command read_memory_descriptors executed for 12 milliseconds with result 0
[2025-Oct-23 09:31:36] [debug] [ Client] - read_memory_descriptors
[2025-Oct-23 09:31:36] [debug] [SeggerBackend] - ---just_read_debug_port_register
[2025-Oct-23 09:31:36] [debug] [SeggerBackend] - ---just_select_debug_port_register
[2025-Oct-23 09:31:36] [trace] [  JLink] - JLINK_CORESIGHT_ReadAPDPReg(DP reg 0x01)  
[2025-Oct-23 09:31:36] [trace] [  JLink] - Value=0xF0000000
[2025-Oct-23 09:31:36] [trace] [  JLink] - - 0.196ms returns 0  
[2025-Oct-23 09:31:36] [trace] [  JLink] - JLINK_HasError()  
[2025-Oct-23 09:31:36] [debug] [SeggerBackend] - ---just_select_access_port_register
[2025-Oct-23 09:31:36] [debug] [SeggerBackend] - Select AP 1, DP Bank 0, AP Bank 15
[2025-Oct-23 09:31:36] [trace] [  JLink] - JLINK_CORESIGHT_WriteAPDPReg(DP reg 0x02, 0x010000F0)  
[2025-Oct-23 09:31:36] [trace] [  JLink] - - 0.153ms returns 0  
[2025-Oct-23 09:31:36] [trace] [  JLink] - JLINK_HasError()  
[2025-Oct-23 09:31:36] [trace] [  JLink] - JLINK_CORESIGHT_ReadAPDPReg(AP reg 0x03)  
[2025-Oct-23 09:31:36] [trace] [  JLink] - Value=0x02880000
[2025-Oct-23 09:31:36] [trace] [  JLink] - - 0.177ms returns 0  
[2025-Oct-23 09:31:36] [trace] [  JLink] - JLINK_HasError()  
[2025-Oct-23 09:31:36] [debug] [SeggerBackend] - read_access_port_register
[2025-Oct-23 09:31:36] [debug] [SeggerBackend] - ---just_read_access_port_register
[2025-Oct-23 09:31:36] [debug] [SeggerBackend] - ---just_select_access_port_register
[2025-Oct-23 09:31:36] [trace] [  JLink] - JLINK_CORESIGHT_ReadAPDPReg(AP reg 0x03)  
[2025-Oct-23 09:31:36] [trace] [  JLink] - Value=0x02880000
[2025-Oct-23 09:31:36] [trace] [  JLink] - - 0.188ms returns 0  
[2025-Oct-23 09:31:36] [trace] [  JLink] - JLINK_HasError()  
[2025-Oct-23 09:31:36] [debug] [SeggerBackend] - read_access_port_register
[2025-Oct-23 09:31:36] [debug] [SeggerBackend] - ---just_read_access_port_register
[2025-Oct-23 09:31:36] [debug] [SeggerBackend] - ---just_select_access_port_register
[2025-Oct-23 09:31:36] [trace] [  JLink] - JLINK_CORESIGHT_ReadAPDPReg(AP reg 0x03)  
[2025-Oct-23 09:31:36] [trace] [  JLink] - Value=0x02880000
[2025-Oct-23 09:31:36] [trace] [  JLink] - - 0.203ms returns 0  
[2025-Oct-23 09:31:36] [trace] [  JLink] - JLINK_HasError()  
[2025-Oct-23 09:31:36] [debug] [SeggerBackend] - read_access_port_register
[2025-Oct-23 09:31:36] [debug] [SeggerBackend] - ---just_read_access_port_register
[2025-Oct-23 09:31:36] [debug] [SeggerBackend] - ---just_select_access_port_register
[2025-Oct-23 09:31:36] [trace] [  JLink] - JLINK_CORESIGHT_ReadAPDPReg(AP reg 0x03)  
[2025-Oct-23 09:31:36] [trace] [  JLink] - Value=0x02880000
[2025-Oct-23 09:31:36] [trace] [  JLink] - - 0.254ms returns 0  
[2025-Oct-23 09:31:36] [trace] [  JLink] - JLINK_HasError()  
[2025-Oct-23 09:31:36] [debug] [SeggerBackend] - read_access_port_register
[2025-Oct-23 09:31:36] [debug] [SeggerBackend] - ---just_read_access_port_register
[2025-Oct-23 09:31:36] [debug] [SeggerBackend] - ---just_select_access_port_register
[2025-Oct-23 09:31:36] [debug] [SeggerBackend] - Select AP 1, DP Bank 0, AP Bank 0
[2025-Oct-23 09:31:36] [trace] [  JLink] - JLINK_CORESIGHT_WriteAPDPReg(DP reg 0x02, 0x01000000)  
[2025-Oct-23 09:31:36] [trace] [  JLink] - - 0.152ms returns 0  
[2025-Oct-23 09:31:36] [trace] [  JLink] - JLINK_HasError()  
[2025-Oct-23 09:31:36] [trace] [  JLink] - JLINK_CORESIGHT_ReadAPDPReg(AP reg 0x03)  
[2025-Oct-23 09:31:36] [trace] [  JLink] - Value=0x00000001
[2025-Oct-23 09:31:36] [trace] [  JLink] - - 0.187ms returns 0  
[2025-Oct-23 09:31:36] [trace] [  JLink] - JLINK_HasError()  
[2025-Oct-23 09:31:36] [debug] [SeggerBackend] - read_access_port_register
[2025-Oct-23 09:31:36] [debug] [SeggerBackend] - ---just_read_access_port_register
[2025-Oct-23 09:31:36] [debug] [SeggerBackend] - ---just_select_access_port_register
[2025-Oct-23 09:31:36] [trace] [  JLink] - JLINK_CORESIGHT_ReadAPDPReg(AP reg 0x03)  
[2025-Oct-23 09:31:36] [trace] [  JLink] - Value=0x00000001
[2025-Oct-23 09:31:36] [trace] [  JLink] - - 0.192ms returns 0  
[2025-Oct-23 09:31:36] [trace] [  JLink] - JLINK_HasError()  
[2025-Oct-23 09:31:36] [debug] [SeggerBackend] - read_access_port_register
[2025-Oct-23 09:31:36] [debug] [SeggerBackend] - ---just_read_access_port_register
[2025-Oct-23 09:31:36] [debug] [SeggerBackend] - ---just_select_access_port_register
[2025-Oct-23 09:31:36] [trace] [  JLink] - JLINK_CORESIGHT_ReadAPDPReg(AP reg 0x03)  
[2025-Oct-23 09:31:36] [trace] [  JLink] - Value=0x00000001
[2025-Oct-23 09:31:36] [trace] [  JLink] - - 0.183ms returns 0  
[2025-Oct-23 09:31:36] [trace] [  JLink] - JLINK_HasError()  
[2025-Oct-23 09:31:36] [debug] [SeggerBackend] - read_access_port_register
[2025-Oct-23 09:31:36] [debug] [SeggerBackend] - ---just_read_access_port_register
[2025-Oct-23 09:31:36] [debug] [SeggerBackend] - ---just_select_access_port_register
[2025-Oct-23 09:31:36] [trace] [  JLink] - JLINK_CORESIGHT_ReadAPDPReg(AP reg 0x03)  
[2025-Oct-23 09:31:36] [trace] [  JLink] - Value=0x00000001
[2025-Oct-23 09:31:36] [trace] [  JLink] - - 0.186ms returns 0  
[2025-Oct-23 09:31:36] [trace] [  JLink] - JLINK_HasError()  
[2025-Oct-23 09:31:36] [ info] [  nRF52] - Protection status read as NONE
[2025-Oct-23 09:31:36] [debug] [SeggerBackend] - read_u32
[2025-Oct-23 09:31:36] [debug] [SeggerBackend] - ---just_connect_to_device
[2025-Oct-23 09:31:36] [debug] [SeggerBackend] - is_connected_to_device
[2025-Oct-23 09:31:36] [trace] [  JLink] - JLINK_IsConnected()  
[2025-Oct-23 09:31:36] [trace] [  JLink] - - 0.001ms returns FALSE  
[2025-Oct-23 09:31:36] [trace] [  JLink] - JLINK_HasError()  
[2025-Oct-23 09:31:36] [debug] [SeggerBackend] - ---set_coresight_ahb_ap_index
[2025-Oct-23 09:31:36] [trace] [  JLink] - JLINK_ExecCommand("CORESIGHT_SetIndexAHBAPToUse = 0", ...).   
[2025-Oct-23 09:31:36] [trace] [  JLink] - - 0.001ms returns 0x00  
[2025-Oct-23 09:31:36] [trace] [  JLink] - JLINK_HasError()  
[2025-Oct-23 09:31:36] [trace] [  JLink] - JLINK_ExecCommand("device = nRF52", ...).   
[2025-Oct-23 09:31:36] [trace] [  JLink] - Device "NRF52" selected.
[2025-Oct-23 09:31:36] [trace] [  JLink] - Device "NRF52" selected.
[2025-Oct-23 09:31:36] [trace] [  JLink] - - 0.317ms returns 0x00  
[2025-Oct-23 09:31:36] [trace] [  JLink] - JLINK_HasError()  
[2025-Oct-23 09:31:36] [trace] [  JLink] - JLINK_Connect()  
[2025-Oct-23 09:31:36] [trace] [  JLink] - InitTarget() start
[2025-Oct-23 09:31:36] [trace] [  JLink] - InitTarget() start
[2025-Oct-23 09:31:36] [trace] [  JLink] -  J-Link Script File: Executing InitTarget() 
[2025-Oct-23 09:31:36] [trace] [  JLink] - InitTarget() end - Took 1.97ms
[2025-Oct-23 09:31:36] [trace] [  JLink] - InitTarget() end - Took 1.97ms
[2025-Oct-23 09:31:36] [trace] [  JLink] - Found SW-DP with ID 0x2BA01477
[2025-Oct-23 09:31:36] [trace] [  JLink] - Found SW-DP with ID 0x2BA01477
[2025-Oct-23 09:31:36] [trace] [  JLink] - DPIDR: 0x2BA01477
[2025-Oct-23 09:31:36] [trace] [  JLink] - DPIDR: 0x2BA01477
[2025-Oct-23 09:31:36] [trace] [  JLink] - CoreSight SoC-400 or earlier
[2025-Oct-23 09:31:36] [trace] [  JLink] - CoreSight SoC-400 or earlier
[2025-Oct-23 09:31:36] [trace] [  JLink] - AP map detection skipped. Manually configured AP map found.
[2025-Oct-23 09:31:36] [trace] [  JLink] - AP map detection skipped. Manually configured AP map found.
[2025-Oct-23 09:31:36] [trace] [  JLink] - AP[0]: AHB-AP (IDR: Not set)
[2025-Oct-23 09:31:36] [trace] [  JLink] - AP[0]: AHB-AP (IDR: Not set)
[2025-Oct-23 09:31:36] [trace] [ Client] - Command read_memory_descriptors executed for 12 milliseconds with result 0
[2025-Oct-23 09:31:36] [debug] [ Client] - read_page_sizes
[2025-Oct-23 09:31:36] [trace] [ Client] - Command read_page_sizes executed for 6 milliseconds with result 0
[2025-Oct-23 09:31:36] [debug] [ Client] - read_page_sizes
[2025-Oct-23 09:31:36] [trace] [  JLink] - AP[0]: Core found
[2025-Oct-23 09:31:36] [trace] [ Client] - Command read_page_sizes executed for 6 milliseconds with result 0
[2025-Oct-23 09:31:36] [debug] [ Client] - read_page_sizes
[2025-Oct-23 09:31:36] [trace] [  JLink] - AP[0]: Core found
[2025-Oct-23 09:31:36] [trace] [  JLink] - AP[0]: AHB-AP ROM base: 0xE00FF000
[2025-Oct-23 09:31:36] [trace] [  JLink] - AP[0]: AHB-AP ROM base: 0xE00FF000
[2025-Oct-23 09:31:36] [trace] [  JLink] - CPUID register: 0x410FC241. Implementer code: 0x41 (ARM)
[2025-Oct-23 09:31:36] [trace] [  JLink] - CPUID register: 0x410FC241. Implementer code: 0x41 (ARM)
[2025-Oct-23 09:31:36] [trace] [  JLink] - Found Cortex-M4 r0p1, Little endian.
[2025-Oct-23 09:31:36] [trace] [  JLink] - Found Cortex-M4 r0p1, Little endian.
[2025-Oct-23 09:31:36] [trace] [  JLink] - -- Max. mem block: 0x0003C818
[2025-Oct-23 09:31:36] [trace] [  JLink] - CPU_ReadMem(4 bytes @ 0xE000EDF0)
[2025-Oct-23 09:31:36] [trace] [  JLink] - CPU_WriteMem(4 bytes @ 0xE000EDF0)
[2025-Oct-23 09:31:36] [trace] [  JLink] - CPU_ReadMem(4 bytes @ 0xE0002000)
[2025-Oct-23 09:31:36] [trace] [  JLink] - FPUnit: 6 code (BP) slots and 2 literal slots
[2025-Oct-23 09:31:36] [trace] [  JLink] - FPUnit: 6 code (BP) slots and 2 literal slots
[2025-Oct-23 09:31:36] [trace] [  JLink] - CPU_ReadMem(4 bytes @ 0xE000EDFC)
[2025-Oct-23 09:31:36] [trace] [  JLink] - CPU_WriteMem(4 bytes @ 0xE000EDFC)
[2025-Oct-23 09:31:36] [trace] [  JLink] - CPU_ReadMem(4 bytes @ 0xE0001000)
[2025-Oct-23 09:31:36] [trace] [  JLink] - CPU_WriteMem(4 bytes @ 0xE0001000)
[2025-Oct-23 09:31:36] [trace] [  JLink] - CPU_ReadMem(4 bytes @ 0xE000ED88)
[2025-Oct-23 09:31:36] [trace] [  JLink] - CPU_WriteMem(4 bytes @ 0xE000ED88)
[2025-Oct-23 09:31:36] [trace] [  JLink] - CPU_ReadMem(4 bytes @ 0xE000ED88)
[2025-Oct-23 09:31:36] [trace] [  JLink] - CPU_WriteMem(4 bytes @ 0xE000ED88)
[2025-Oct-23 09:31:36] [trace] [  JLink] - CoreSight components:
[2025-Oct-23 09:31:36] [trace] [  JLink] - CoreSight components:
[2025-Oct-23 09:31:36] [trace] [  JLink] - ROMTbl[0] @ E00FF000
[2025-Oct-23 09:31:36] [trace] [  JLink] - ROMTbl[0] @ E00FF000
[2025-Oct-23 09:31:36] [trace] [  JLink] - CPU_ReadMem(64 bytes @ 0xE00FF000)
[2025-Oct-23 09:31:36] [trace] [  JLink] - CPU_ReadMem(32 bytes @ 0xE000EFE0)
[2025-Oct-23 09:31:36] [trace] [  JLink] - [0][0]: E000E000 CID B105E00D PID 000BB00C SCS-M7
[2025-Oct-23 09:31:36] [trace] [  JLink] - [0][0]: E000E000 CID B105E00D PID 000BB00C SCS-M7
[2025-Oct-23 09:31:36] [trace] [  JLink] - CPU_ReadMem(32 bytes @ 0xE0001FE0)
[2025-Oct-23 09:31:36] [trace] [  JLink] - [0][1]: E0001000 CID B105E00D PID 003BB002 DWT
[2025-Oct-23 09:31:36] [trace] [  JLink] - [0][1]: E0001000 CID B105E00D PID 003BB002 DWT
[2025-Oct-23 09:31:36] [trace] [  JLink] - CPU_ReadMem(32 bytes @ 0xE0002FE0)
[2025-Oct-23 09:31:36] [trace] [  JLink] - [0][2]: E0002000 CID B105E00D PID 002BB003 FPB
[2025-Oct-23 09:31:36] [trace] [  JLink] - [0][2]: E0002000 CID B105E00D PID 002BB003 FPB
[2025-Oct-23 09:31:36] [trace] [  JLink] - CPU_ReadMem(32 bytes @ 0xE0000FE0)
[2025-Oct-23 09:31:36] [trace] [  JLink] - [0][3]: E0000000 CID B105E00D PID 003BB001 ITM
[2025-Oct-23 09:31:36] [trace] [  JLink] - [0][3]: E0000000 CID B105E00D PID 003BB001 ITM
[2025-Oct-23 09:31:36] [trace] [  JLink] - CPU_ReadMem(32 bytes @ 0xE0040FE0)
[2025-Oct-23 09:31:36] [trace] [  JLink] - [0][4]: E0040000 CID B105900D PID 000BB9A1 TPIU
[2025-Oct-23 09:31:36] [trace] [  JLink] - [0][4]: E0040000 CID B105900D PID 000BB9A1 TPIU
[2025-Oct-23 09:31:36] [trace] [  JLink] - CPU_ReadMem(32 bytes @ 0xE0041FE0)
[2025-Oct-23 09:31:36] [trace] [  JLink] - [0][5]: E0041000 CID B105900D PID 000BB925 ETM
[2025-Oct-23 09:31:36] [trace] [  JLink] - [0][5]: E0041000 CID B105900D PID 000BB925 ETM
[2025-Oct-23 09:31:36] [trace] [  JLink] - - 14.290ms returns 0x00  
[2025-Oct-23 09:31:36] [trace] [  JLink] - JLINK_HasError()  
[2025-Oct-23 09:31:36] [trace] [  JLink] - JLINK_CORE_GetFound()  
[2025-Oct-23 09:31:36] [trace] [  JLink] - - 0.001ms returns 0xE0000FF  
[2025-Oct-23 09:31:36] [debug] [SeggerBackend] - ---just_read_u32
[2025-Oct-23 09:31:36] [debug] [SeggerBackend] - ---just_invalidate_cache
[2025-Oct-23 09:31:36] [trace] [  JLink] - JLINK_ExecCommand("InvalidateCache", ...).   
[2025-Oct-23 09:31:36] [trace] [  JLink] - - 0.015ms returns 0x00  
[2025-Oct-23 09:31:36] [trace] [  JLink] - JLINK_HasError()  
[2025-Oct-23 09:31:36] [trace] [  JLink] - JLINK_ReadMemU32(0x10000130, 0x1 Items)  
[2025-Oct-23 09:31:36] [trace] [  JLink] - CPU_ReadMem(4 bytes @ 0x10000130)
[2025-Oct-23 09:31:36] [trace] [  JLink] - Data:  08 00 00 00
[2025-Oct-23 09:31:36] [trace] [  JLink] - - 0.304ms returns 1 (0x1)  
[2025-Oct-23 09:31:36] [trace] [  JLink] - JLINK_HasError()  
[2025-Oct-23 09:31:36] [debug] [SeggerBackend] - read_u32
[2025-Oct-23 09:31:36] [debug] [SeggerBackend] - ---just_connect_to_device
[2025-Oct-23 09:31:36] [debug] [SeggerBackend] - is_connected_to_device
[2025-Oct-23 09:31:36] [debug] [SeggerBackend] - ---just_read_u32
[2025-Oct-23 09:31:36] [debug] [SeggerBackend] - ---just_invalidate_cache
[2025-Oct-23 09:31:36] [trace] [  JLink] - JLINK_ExecCommand("InvalidateCache", ...).   
[2025-Oct-23 09:31:36] [trace] [  JLink] - - 0.000ms returns 0x00  
[2025-Oct-23 09:31:36] [trace] [  JLink] - JLINK_HasError()  
[2025-Oct-23 09:31:36] [trace] [  JLink] - JLINK_ReadMemU32(0x10000134, 0x1 Items)  
[2025-Oct-23 09:31:36] [trace] [  JLink] - CPU_ReadMem(4 bytes @ 0x10000134)
[2025-Oct-23 09:31:36] [trace] [  JLink] - Data:  05 00 00 00
[2025-Oct-23 09:31:36] [trace] [  JLink] - - 0.285ms returns 1 (0x1)  
[2025-Oct-23 09:31:36] [trace] [  JLink] - JLINK_HasError()  
[2025-Oct-23 09:31:36] [debug] [  nRF52] - Just_decode_device_version
[2025-Oct-23 09:31:36] [debug] [  nRF52] - Device identified as NRF52840_xxAA_REV3
[2025-Oct-23 09:31:36] [trace] [  JLink] - - 0.020ms  
[2025-Oct-23 09:31:36] [trace] [ Worker] - Command read_device_info executed for 18 milliseconds with result 0
[2025-Oct-23 09:31:36] [debug] [  nRF52] - read_memory_descriptors
[2025-Oct-23 09:31:36] [debug] [SeggerBackend] - is_connected_to_emu
[2025-Oct-23 09:31:36] [trace] [  JLink] - JLINK_IsOpen()  
[2025-Oct-23 09:31:36] [trace] [  JLink] - - 0.001ms returns 0x01  
[2025-Oct-23 09:31:36] [trace] [  JLink] - JLINK_HasError()  
[2025-Oct-23 09:31:36] [trace] [  JLink] - JLINK_Lock()  
[2025-Oct-23 09:31:36] [debug] [  nRF52] - Just_read_memory_descriptors
[2025-Oct-23 09:31:36] [debug] [  nRF52] - Just_readback_status
[2025-Oct-23 09:31:36] [debug] [  nRF52] - Just_is_ctrl_ap_available
[2025-Oct-23 09:31:36] [debug] [SeggerBackend] - read_access_port_register
[2025-Oct-23 09:31:36] [debug] [SeggerBackend] - ---just_read_access_port_register
[2025-Oct-23 09:31:36] [debug] [SeggerBackend] - ---just_is_debug_region_powered
[2025-Oct-23 09:31:36] [debug] [SeggerBackend] - ---just_read_debug_port_register
[2025-Oct-23 09:31:36] [debug] [SeggerBackend] - ---just_select_debug_port_register
[2025-Oct-23 09:31:36] [debug] [SeggerBackend] - Select AP 255, DP Bank 0, AP Bank 255
[2025-Oct-23 09:31:36] [trace] [  JLink] - JLINK_CORESIGHT_WriteAPDPReg(DP reg 0x02, 0x00000000)  
[2025-Oct-23 09:31:36] [trace] [  JLink] - - 0.180ms returns 0  
[2025-Oct-23 09:31:36] [trace] [  JLink] - JLINK_HasError()  
[2025-Oct-23 09:31:36] [trace] [  JLink] - JLINK_CORESIGHT_ReadAPDPReg(DP reg 0x01)  
[2025-Oct-23 09:31:36] [trace] [  JLink] - Value=0xF0000040
[2025-Oct-23 09:31:36] [trace] [  JLink] - - 0.171ms returns 0  
[2025-Oct-23 09:31:36] [trace] [  JLink] - JLINK_HasError()  
[2025-Oct-23 09:31:36] [debug] [SeggerBackend] - ---just_select_access_port_register
[2025-Oct-23 09:31:36] [debug] [SeggerBackend] - Select AP 1, DP Bank 0, AP Bank 15
[2025-Oct-23 09:31:36] [trace] [ Client] - Command read_page_sizes executed for 6 milliseconds with result 0
[2025-Oct-23 09:31:36] [debug] [ Client] - read_page_sizes
[2025-Oct-23 09:31:36] [trace] [ Client] - Command read_page_sizes executed for 6 milliseconds with result 0
[2025-Oct-23 09:31:36] [debug] [ Client] - read_page_sizes
[2025-Oct-23 09:31:36] [trace] [  JLink] - JLINK_CORESIGHT_WriteAPDPReg(DP reg 0x02, 0x010000F0)  
[2025-Oct-23 09:31:36] [trace] [ Client] - Command read_page_sizes executed for 6 milliseconds with result 0
[2025-Oct-23 09:31:36] [debug] [ Client] - read_page_sizes
[2025-Oct-23 09:31:36] [trace] [  JLink] - - 0.163ms returns 0  
[2025-Oct-23 09:31:36] [trace] [  JLink] - JLINK_HasError()  
[2025-Oct-23 09:31:36] [trace] [  JLink] - JLINK_CORESIGHT_ReadAPDPReg(AP reg 0x03)  
[2025-Oct-23 09:31:36] [trace] [  JLink] - Value=0x02880000
[2025-Oct-23 09:31:36] [trace] [  JLink] - - 0.190ms returns 0  
[2025-Oct-23 09:31:36] [trace] [  JLink] - JLINK_HasError()  
[2025-Oct-23 09:31:36] [debug] [SeggerBackend] - read_access_port_register
[2025-Oct-23 09:31:36] [debug] [SeggerBackend] - ---just_read_access_port_register
[2025-Oct-23 09:31:36] [debug] [SeggerBackend] - ---just_select_access_port_register
[2025-Oct-23 09:31:36] [trace] [  JLink] - JLINK_CORESIGHT_ReadAPDPReg(AP reg 0x03)  
[2025-Oct-23 09:31:36] [trace] [  JLink] - Value=0x02880000
[2025-Oct-23 09:31:36] [trace] [  JLink] - - 0.205ms returns 0  
[2025-Oct-23 09:31:36] [trace] [  JLink] - JLINK_HasError()  
[2025-Oct-23 09:31:36] [debug] [SeggerBackend] - read_access_port_register
[2025-Oct-23 09:31:36] [debug] [SeggerBackend] - ---just_read_access_port_register
[2025-Oct-23 09:31:36] [debug] [SeggerBackend] - ---just_select_access_port_register
[2025-Oct-23 09:31:36] [trace] [  JLink] - JLINK_CORESIGHT_ReadAPDPReg(AP reg 0x03)  
[2025-Oct-23 09:31:36] [trace] [  JLink] - Value=0x02880000
[2025-Oct-23 09:31:36] [trace] [  JLink] - - 0.266ms returns 0  
[2025-Oct-23 09:31:36] [trace] [  JLink] - JLINK_HasError()  
[2025-Oct-23 09:31:36] [debug] [SeggerBackend] - read_access_port_register
[2025-Oct-23 09:31:36] [debug] [SeggerBackend] - ---just_read_access_port_register
[2025-Oct-23 09:31:36] [debug] [SeggerBackend] - ---just_select_access_port_register
[2025-Oct-23 09:31:36] [trace] [  JLink] - JLINK_CORESIGHT_ReadAPDPReg(AP reg 0x03)  
[2025-Oct-23 09:31:36] [trace] [  JLink] - Value=0x02880000
[2025-Oct-23 09:31:36] [trace] [  JLink] - - 0.200ms returns 0  
[2025-Oct-23 09:31:36] [trace] [  JLink] - JLINK_HasError()  
[2025-Oct-23 09:31:36] [debug] [SeggerBackend] - read_access_port_register
[2025-Oct-23 09:31:36] [debug] [SeggerBackend] - ---just_read_access_port_register
[2025-Oct-23 09:31:36] [debug] [SeggerBackend] - ---just_select_access_port_register
[2025-Oct-23 09:31:36] [debug] [SeggerBackend] - Select AP 1, DP Bank 0, AP Bank 0
[2025-Oct-23 09:31:36] [trace] [  JLink] - JLINK_CORESIGHT_WriteAPDPReg(DP reg 0x02, 0x01000000)  
[2025-Oct-23 09:31:36] [trace] [  JLink] - - 0.175ms returns 0  
[2025-Oct-23 09:31:36] [trace] [  JLink] - JLINK_HasError()  
[2025-Oct-23 09:31:36] [trace] [  JLink] - JLINK_CORESIGHT_ReadAPDPReg(AP reg 0x03)  
[2025-Oct-23 09:31:36] [trace] [  JLink] - Value=0x00000001
[2025-Oct-23 09:31:36] [trace] [  JLink] - - 0.195ms returns 0  
[2025-Oct-23 09:31:36] [trace] [  JLink] - JLINK_HasError()  
[2025-Oct-23 09:31:36] [debug] [SeggerBackend] - read_access_port_register
[2025-Oct-23 09:31:36] [debug] [SeggerBackend] - ---just_read_access_port_register
[2025-Oct-23 09:31:36] [debug] [SeggerBackend] - ---just_select_access_port_register
[2025-Oct-23 09:31:36] [trace] [  JLink] - JLINK_CORESIGHT_ReadAPDPReg(AP reg 0x03)  
[2025-Oct-23 09:31:36] [trace] [  JLink] - Value=0x00000001
[2025-Oct-23 09:31:36] [trace] [  JLink] - - 0.197ms returns 0  
[2025-Oct-23 09:31:36] [trace] [  JLink] - JLINK_HasError()  
[2025-Oct-23 09:31:36] [debug] [SeggerBackend] - read_access_port_register
[2025-Oct-23 09:31:36] [debug] [SeggerBackend] - ---just_read_access_port_register
[2025-Oct-23 09:31:36] [debug] [SeggerBackend] - ---just_select_access_port_register
[2025-Oct-23 09:31:36] [trace] [  JLink] - JLINK_CORESIGHT_ReadAPDPReg(AP reg 0x03)  
[2025-Oct-23 09:31:36] [trace] [  JLink] - Value=0x00000001
[2025-Oct-23 09:31:36] [trace] [  JLink] - - 0.207ms returns 0  
[2025-Oct-23 09:31:36] [trace] [  JLink] - JLINK_HasError()  
[2025-Oct-23 09:31:36] [debug] [SeggerBackend] - read_access_port_register
[2025-Oct-23 09:31:36] [debug] [SeggerBackend] - ---just_read_access_port_register
[2025-Oct-23 09:31:36] [debug] [SeggerBackend] - ---just_select_access_port_register
[2025-Oct-23 09:31:36] [trace] [  JLink] - JLINK_CORESIGHT_ReadAPDPReg(AP reg 0x03)  
[2025-Oct-23 09:31:36] [trace] [  JLink] - Value=0x00000001
[2025-Oct-23 09:31:36] [trace] [  JLink] - - 0.196ms returns 0  
[2025-Oct-23 09:31:36] [trace] [  JLink] - JLINK_HasError()  
[2025-Oct-23 09:31:36] [ info] [  nRF52] - Protection status read as NONE
[2025-Oct-23 09:31:36] [debug] [  nRF52] - update_device_memory_list
[2025-Oct-23 09:31:36] [debug] [  nRF52] - Just_read_device_version
[2025-Oct-23 09:31:36] [debug] [  nRF52] - Just_readback_status
[2025-Oct-23 09:31:36] [debug] [  nRF52] - Just_is_ctrl_ap_available
[2025-Oct-23 09:31:36] [debug] [SeggerBackend] - read_access_port_register
[2025-Oct-23 09:31:36] [debug] [SeggerBackend] - ---just_read_access_port_register
[2025-Oct-23 09:31:36] [debug] [SeggerBackend] - ---just_select_access_port_register
[2025-Oct-23 09:31:36] [debug] [SeggerBackend] - Select AP 1, DP Bank 0, AP Bank 15
[2025-Oct-23 09:31:36] [trace] [  JLink] - JLINK_CORESIGHT_WriteAPDPReg(DP reg 0x02, 0x010000F0)  
[2025-Oct-23 09:31:36] [trace] [  JLink] - - 0.169ms returns 0  
[2025-Oct-23 09:31:36] [trace] [  JLink] - JLINK_HasError()  
[2025-Oct-23 09:31:36] [trace] [  JLink] - JLINK_CORESIGHT_ReadAPDPReg(AP reg 0x03)  
[2025-Oct-23 09:31:36] [trace] [  JLink] - Value=0x02880000
[2025-Oct-23 09:31:36] [trace] [  JLink] - - 0.199ms returns 0  
[2025-Oct-23 09:31:36] [trace] [  JLink] - JLINK_HasError()  
[2025-Oct-23 09:31:36] [debug] [SeggerBackend] - read_access_port_register
[2025-Oct-23 09:31:36] [debug] [SeggerBackend] - ---just_read_access_port_register
[2025-Oct-23 09:31:36] [debug] [SeggerBackend] - ---just_select_access_port_register
[2025-Oct-23 09:31:36] [trace] [  JLink] - JLINK_CORESIGHT_ReadAPDPReg(AP reg 0x03)  
[2025-Oct-23 09:31:36] [trace] [  JLink] - Value=0x02880000
[2025-Oct-23 09:31:36] [trace] [  JLink] - - 0.192ms returns 0  
[2025-Oct-23 09:31:36] [trace] [  JLink] - JLINK_HasError()  
[2025-Oct-23 09:31:36] [debug] [SeggerBackend] - read_access_port_register
[2025-Oct-23 09:31:36] [debug] [SeggerBackend] - ---just_read_access_port_register
[2025-Oct-23 09:31:36] [debug] [SeggerBackend] - ---just_select_access_port_register
[2025-Oct-23 09:31:36] [trace] [  JLink] - JLINK_CORESIGHT_ReadAPDPReg(AP reg 0x03)  
[2025-Oct-23 09:31:36] [trace] [  JLink] - Value=0x02880000
[2025-Oct-23 09:31:36] [trace] [  JLink] - - 0.215ms returns 0  
[2025-Oct-23 09:31:36] [trace] [  JLink] - JLINK_HasError()  
[2025-Oct-23 09:31:36] [debug] [SeggerBackend] - read_access_port_register
[2025-Oct-23 09:31:36] [debug] [SeggerBackend] - ---just_read_access_port_register
[2025-Oct-23 09:31:36] [debug] [SeggerBackend] - ---just_select_access_port_register
[2025-Oct-23 09:31:36] [trace] [  JLink] - JLINK_CORESIGHT_ReadAPDPReg(AP reg 0x03)  
[2025-Oct-23 09:31:36] [trace] [  JLink] - Value=0x02880000
[2025-Oct-23 09:31:36] [trace] [  JLink] - - 0.208ms returns 0  
[2025-Oct-23 09:31:36] [trace] [  JLink] - JLINK_HasError()  
[2025-Oct-23 09:31:36] [debug] [SeggerBackend] - read_access_port_register
[2025-Oct-23 09:31:36] [debug] [SeggerBackend] - ---just_read_access_port_register
[2025-Oct-23 09:31:36] [debug] [SeggerBackend] - ---just_select_access_port_register
[2025-Oct-23 09:31:36] [trace] [ Client] - Command read_page_sizes executed for 6 milliseconds with result 0
[2025-Oct-23 09:31:36] [debug] [ Client] - read_page_sizes
[2025-Oct-23 09:31:36] [trace] [ Client] - Command read_page_sizes executed for 6 milliseconds with result 0
[2025-Oct-23 09:31:36] [debug] [ Client] - read_page_sizes
[2025-Oct-23 09:31:36] [debug] [SeggerBackend] - Select AP 1, DP Bank 0, AP Bank 0
[2025-Oct-23 09:31:36] [trace] [ Client] - Command read_page_sizes executed for 6 milliseconds with result 0
[2025-Oct-23 09:31:36] [debug] [ Client] - read_page_sizes
[2025-Oct-23 09:31:36] [trace] [  JLink] - JLINK_CORESIGHT_WriteAPDPReg(DP reg 0x02, 0x01000000)  
[2025-Oct-23 09:31:36] [trace] [  JLink] - - 0.169ms returns 0  
[2025-Oct-23 09:31:36] [trace] [  JLink] - JLINK_HasError()  
[2025-Oct-23 09:31:36] [trace] [  JLink] - JLINK_CORESIGHT_ReadAPDPReg(AP reg 0x03)  
[2025-Oct-23 09:31:36] [trace] [  JLink] - Value=0x00000001
[2025-Oct-23 09:31:36] [trace] [  JLink] - - 0.188ms returns 0  
[2025-Oct-23 09:31:36] [trace] [  JLink] - JLINK_HasError()  
[2025-Oct-23 09:31:36] [debug] [SeggerBackend] - read_access_port_register
[2025-Oct-23 09:31:36] [debug] [SeggerBackend] - ---just_read_access_port_register
[2025-Oct-23 09:31:36] [debug] [SeggerBackend] - ---just_select_access_port_register
[2025-Oct-23 09:31:36] [trace] [  JLink] - JLINK_CORESIGHT_ReadAPDPReg(AP reg 0x03)  
[2025-Oct-23 09:31:36] [trace] [  JLink] - Value=0x00000001
[2025-Oct-23 09:31:36] [trace] [  JLink] - - 0.192ms returns 0  
[2025-Oct-23 09:31:36] [trace] [  JLink] - JLINK_HasError()  
[2025-Oct-23 09:31:36] [debug] [SeggerBackend] - read_access_port_register
[2025-Oct-23 09:31:36] [debug] [SeggerBackend] - ---just_read_access_port_register
[2025-Oct-23 09:31:36] [debug] [SeggerBackend] - ---just_select_access_port_register
[2025-Oct-23 09:31:36] [trace] [  JLink] - JLINK_CORESIGHT_ReadAPDPReg(AP reg 0x03)  
[2025-Oct-23 09:31:36] [trace] [  JLink] - Value=0x00000001
[2025-Oct-23 09:31:36] [trace] [  JLink] - - 0.226ms returns 0  
[2025-Oct-23 09:31:36] [trace] [  JLink] - JLINK_HasError()  
[2025-Oct-23 09:31:36] [debug] [SeggerBackend] - read_access_port_register
[2025-Oct-23 09:31:36] [debug] [SeggerBackend] - ---just_read_access_port_register
[2025-Oct-23 09:31:36] [debug] [SeggerBackend] - ---just_select_access_port_register
[2025-Oct-23 09:31:36] [trace] [  JLink] - JLINK_CORESIGHT_ReadAPDPReg(AP reg 0x03)  
[2025-Oct-23 09:31:36] [trace] [  JLink] - Value=0x00000001
[2025-Oct-23 09:31:36] [trace] [  JLink] - - 0.206ms returns 0  
[2025-Oct-23 09:31:36] [trace] [  JLink] - JLINK_HasError()  
[2025-Oct-23 09:31:36] [ info] [  nRF52] - Protection status read as NONE
[2025-Oct-23 09:31:36] [trace] [ Client] - Command read_page_sizes executed for 6 milliseconds with result 0
[2025-Oct-23 09:31:36] [debug] [ Client] - read_page_sizes
[2025-Oct-23 09:31:36] [debug] [SeggerBackend] - read_u32
[2025-Oct-23 09:31:36] [trace] [ Client] - Command read_page_sizes executed for 6 milliseconds with result 0
[2025-Oct-23 09:31:36] [debug] [ Client] - read_page_sizes
[2025-Oct-23 09:31:36] [debug] [SeggerBackend] - ---just_connect_to_device
[2025-Oct-23 09:31:36] [debug] [SeggerBackend] - is_connected_to_device
[2025-Oct-23 09:31:36] [trace] [  JLink] - JLINK_IsConnected()  
[2025-Oct-23 09:31:36] [trace] [  JLink] - - 0.000ms returns TRUE  
[2025-Oct-23 09:31:36] [trace] [  JLink] - JLINK_HasError()  
[2025-Oct-23 09:31:36] [debug] [SeggerBackend] - ---just_read_u32
[2025-Oct-23 09:31:36] [debug] [SeggerBackend] - ---just_invalidate_cache
[2025-Oct-23 09:31:36] [trace] [  JLink] - JLINK_ExecCommand("InvalidateCache", ...).   
[2025-Oct-23 09:31:36] [trace] [  JLink] - - 0.001ms returns 0x00  
[2025-Oct-23 09:31:36] [trace] [  JLink] - JLINK_HasError()  
[2025-Oct-23 09:31:36] [trace] [  JLink] - JLINK_ReadMemU32(0x10000130, 0x1 Items)  
[2025-Oct-23 09:31:36] [trace] [  JLink] - CPU_ReadMem(4 bytes @ 0x10000130)
[2025-Oct-23 09:31:36] [trace] [  JLink] - Data:  08 00 00 00
[2025-Oct-23 09:31:36] [trace] [  JLink] - - 0.295ms returns 1 (0x1)  
[2025-Oct-23 09:31:36] [trace] [  JLink] - JLINK_HasError()  
[2025-Oct-23 09:31:36] [debug] [SeggerBackend] - read_u32
[2025-Oct-23 09:31:36] [debug] [SeggerBackend] - ---just_connect_to_device
[2025-Oct-23 09:31:36] [debug] [SeggerBackend] - is_connected_to_device
[2025-Oct-23 09:31:36] [debug] [SeggerBackend] - ---just_read_u32
[2025-Oct-23 09:31:36] [debug] [SeggerBackend] - ---just_invalidate_cache
[2025-Oct-23 09:31:36] [trace] [  JLink] - JLINK_ExecCommand("InvalidateCache", ...).   
[2025-Oct-23 09:31:36] [trace] [  JLink] - - 0.001ms returns 0x00  
[2025-Oct-23 09:31:36] [trace] [  JLink] - JLINK_HasError()  
[2025-Oct-23 09:31:36] [trace] [  JLink] - JLINK_ReadMemU32(0x10000134, 0x1 Items)  
[2025-Oct-23 09:31:36] [trace] [  JLink] - CPU_ReadMem(4 bytes @ 0x10000134)
[2025-Oct-23 09:31:36] [trace] [  JLink] - Data:  05 00 00 00
[2025-Oct-23 09:31:36] [trace] [  JLink] - - 0.313ms returns 1 (0x1)  
[2025-Oct-23 09:31:36] [trace] [  JLink] - JLINK_HasError()  
[2025-Oct-23 09:31:36] [debug] [  nRF52] - Just_decode_device_version
[2025-Oct-23 09:31:36] [trace] [ Client] - Command read_page_sizes executed for 6 milliseconds with result 0
[2025-Oct-23 09:31:36] [debug] [ Client] - read_page_sizes
[2025-Oct-23 09:31:36] [debug] [  nRF52] - Device identified as NRF52840_xxAA_REV3
[2025-Oct-23 09:31:36] [trace] [ Client] - Command read_page_sizes executed for 6 milliseconds with result 0
[2025-Oct-23 09:31:36] [debug] [  nRF52] - Read memory description from family DLL: "Flash" [0x00000000-0x00100000] 256 pages (256x4kB) static ID0
[2025-Oct-23 09:31:36] [debug] [  nRF52] - Read memory description from family DLL: "Code RAM" [0x00800000-0x00840000] 22 pages (16x4kB,6x32kB) static ID8388608
[2025-Oct-23 09:31:36] [debug] [  nRF52] - Read memory description from family DLL: "FICR" [0x10000000-0x10001000] 1 pages (1x4kB) static ID268435456
[2025-Oct-23 09:31:36] [debug] [  nRF52] - Read memory description from family DLL: "UICR" [0x10001000-0x10002000] 1 pages (1x4kB) static ID268439552
[2025-Oct-23 09:31:36] [debug] [  nRF52] - Read memory description from family DLL: "XIP" [0x12000000-0x1A000000] 1 pages (1x131072kB) static ID301989888
[2025-Oct-23 09:31:36] [debug] [  nRF52] - Read memory description from family DLL: "RAM" [0x20000000-0x20040000] 22 pages (16x4kB,6x32kB) static ID536870912
[2025-Oct-23 09:31:36] [trace] [  JLink] - - 0.085ms  
[2025-Oct-23 09:31:36] [trace] [ Worker] - Command read_memory_descriptors executed for 5 milliseconds with result 0
[2025-Oct-23 09:31:36] [debug] [  nRF52] - read_memory_descriptors
[2025-Oct-23 09:31:36] [debug] [SeggerBackend] - is_connected_to_emu
[2025-Oct-23 09:31:36] [trace] [  JLink] - JLINK_IsOpen()  
[2025-Oct-23 09:31:36] [trace] [  JLink] - - 0.001ms returns 0x01  
[2025-Oct-23 09:31:36] [trace] [  JLink] - JLINK_HasError()  
[2025-Oct-23 09:31:36] [trace] [  JLink] - JLINK_Lock()  
[2025-Oct-23 09:31:36] [debug] [  nRF52] - Just_read_memory_descriptors
[2025-Oct-23 09:31:36] [debug] [  nRF52] - Just_readback_status
[2025-Oct-23 09:31:36] [debug] [  nRF52] - Just_is_ctrl_ap_available
[2025-Oct-23 09:31:36] [debug] [SeggerBackend] - read_access_port_register
[2025-Oct-23 09:31:36] [debug] [SeggerBackend] - ---just_read_access_port_register
[2025-Oct-23 09:31:36] [debug] [SeggerBackend] - ---just_is_debug_region_powered
[2025-Oct-23 09:31:36] [debug] [SeggerBackend] - ---just_read_debug_port_register
[2025-Oct-23 09:31:36] [debug] [SeggerBackend] - ---just_select_debug_port_register
[2025-Oct-23 09:31:36] [debug] [SeggerBackend] - Select AP 255, DP Bank 0, AP Bank 255
[2025-Oct-23 09:31:36] [trace] [  JLink] - JLINK_CORESIGHT_WriteAPDPReg(DP reg 0x02, 0x00000000)  
[2025-Oct-23 09:31:36] [trace] [  JLink] - - 0.185ms returns 0  
[2025-Oct-23 09:31:36] [trace] [  JLink] - JLINK_HasError()  
[2025-Oct-23 09:31:36] [trace] [  JLink] - JLINK_CORESIGHT_ReadAPDPReg(DP reg 0x01)  
[2025-Oct-23 09:31:36] [trace] [  JLink] - Value=0xF0000040
[2025-Oct-23 09:31:36] [trace] [  JLink] - - 0.191ms returns 0  
[2025-Oct-23 09:31:36] [trace] [  JLink] - JLINK_HasError()  
[2025-Oct-23 09:31:36] [debug] [SeggerBackend] - ---just_select_access_port_register
[2025-Oct-23 09:31:36] [debug] [SeggerBackend] - Select AP 1, DP Bank 0, AP Bank 15
[2025-Oct-23 09:31:36] [trace] [  JLink] - JLINK_CORESIGHT_WriteAPDPReg(DP reg 0x02, 0x010000F0)  
[2025-Oct-23 09:31:36] [trace] [  JLink] - - 0.193ms returns 0  
[2025-Oct-23 09:31:36] [trace] [  JLink] - JLINK_HasError()  
[2025-Oct-23 09:31:36] [trace] [  JLink] - JLINK_CORESIGHT_ReadAPDPReg(AP reg 0x03)  
[2025-Oct-23 09:31:36] [trace] [  JLink] - Value=0x02880000
[2025-Oct-23 09:31:36] [trace] [  JLink] - - 0.220ms returns 0  
[2025-Oct-23 09:31:36] [trace] [  JLink] - JLINK_HasError()  
[2025-Oct-23 09:31:36] [debug] [SeggerBackend] - read_access_port_register
[2025-Oct-23 09:31:36] [debug] [SeggerBackend] - ---just_read_access_port_register
[2025-Oct-23 09:31:36] [debug] [SeggerBackend] - ---just_select_access_port_register
[2025-Oct-23 09:31:36] [trace] [  JLink] - JLINK_CORESIGHT_ReadAPDPReg(AP reg 0x03)  
[2025-Oct-23 09:31:36] [trace] [  JLink] - Value=0x02880000
[2025-Oct-23 09:31:36] [trace] [  JLink] - - 0.221ms returns 0  
[2025-Oct-23 09:31:36] [trace] [  JLink] - JLINK_HasError()  
[2025-Oct-23 09:31:36] [debug] [SeggerBackend] - read_access_port_register
[2025-Oct-23 09:31:36] [debug] [SeggerBackend] - ---just_read_access_port_register
[2025-Oct-23 09:31:36] [debug] [SeggerBackend] - ---just_select_access_port_register
[2025-Oct-23 09:31:36] [trace] [  JLink] - JLINK_CORESIGHT_ReadAPDPReg(AP reg 0x03)  
[2025-Oct-23 09:31:36] [trace] [  JLink] - Value=0x02880000
[2025-Oct-23 09:31:36] [trace] [  JLink] - - 0.207ms returns 0  
[2025-Oct-23 09:31:36] [trace] [  JLink] - JLINK_HasError()  
[2025-Oct-23 09:31:36] [debug] [SeggerBackend] - read_access_port_register
[2025-Oct-23 09:31:36] [debug] [SeggerBackend] - ---just_read_access_port_register
[2025-Oct-23 09:31:36] [debug] [SeggerBackend] - ---just_select_access_port_register
[2025-Oct-23 09:31:36] [trace] [  JLink] - JLINK_CORESIGHT_ReadAPDPReg(AP reg 0x03)  
[2025-Oct-23 09:31:36] [trace] [  JLink] - Value=0x02880000
[2025-Oct-23 09:31:36] [trace] [  JLink] - - 0.202ms returns 0  
[2025-Oct-23 09:31:36] [trace] [  JLink] - JLINK_HasError()  
[2025-Oct-23 09:31:36] [debug] [SeggerBackend] - read_access_port_register
[2025-Oct-23 09:31:36] [debug] [SeggerBackend] - ---just_read_access_port_register
[2025-Oct-23 09:31:36] [debug] [SeggerBackend] - ---just_select_access_port_register
[2025-Oct-23 09:31:36] [debug] [SeggerBackend] - Select AP 1, DP Bank 0, AP Bank 0
[2025-Oct-23 09:31:36] [trace] [  JLink] - JLINK_CORESIGHT_WriteAPDPReg(DP reg 0x02, 0x01000000)  
[2025-Oct-23 09:31:36] [trace] [  JLink] - - 0.194ms returns 0  
[2025-Oct-23 09:31:36] [trace] [  JLink] - JLINK_HasError()  
[2025-Oct-23 09:31:36] [trace] [  JLink] - JLINK_CORESIGHT_ReadAPDPReg(AP reg 0x03)  
[2025-Oct-23 09:31:36] [trace] [  JLink] - Value=0x00000001
[2025-Oct-23 09:31:36] [trace] [  JLink] - - 0.191ms returns 0  
[2025-Oct-23 09:31:36] [trace] [  JLink] - JLINK_HasError()  
[2025-Oct-23 09:31:36] [debug] [SeggerBackend] - read_access_port_register
[2025-Oct-23 09:31:36] [debug] [SeggerBackend] - ---just_read_access_port_register
[2025-Oct-23 09:31:36] [debug] [SeggerBackend] - ---just_select_access_port_register
[2025-Oct-23 09:31:36] [trace] [  JLink] - JLINK_CORESIGHT_ReadAPDPReg(AP reg 0x03)  
[2025-Oct-23 09:31:36] [trace] [  JLink] - Value=0x00000001
[2025-Oct-23 09:31:36] [trace] [  JLink] - - 0.215ms returns 0  
[2025-Oct-23 09:31:36] [trace] [  JLink] - JLINK_HasError()  
[2025-Oct-23 09:31:36] [debug] [SeggerBackend] - read_access_port_register
[2025-Oct-23 09:31:36] [debug] [SeggerBackend] - ---just_read_access_port_register
[2025-Oct-23 09:31:36] [debug] [SeggerBackend] - ---just_select_access_port_register
[2025-Oct-23 09:31:36] [trace] [  JLink] - JLINK_CORESIGHT_ReadAPDPReg(AP reg 0x03)  
[2025-Oct-23 09:31:36] [trace] [  JLink] - Value=0x00000001
[2025-Oct-23 09:31:36] [trace] [  JLink] - - 0.224ms returns 0  
[2025-Oct-23 09:31:36] [trace] [  JLink] - JLINK_HasError()  
[2025-Oct-23 09:31:36] [debug] [SeggerBackend] - read_access_port_register
[2025-Oct-23 09:31:36] [debug] [SeggerBackend] - ---just_read_access_port_register
[2025-Oct-23 09:31:36] [debug] [SeggerBackend] - ---just_select_access_port_register
[2025-Oct-23 09:31:36] [trace] [  JLink] - JLINK_CORESIGHT_ReadAPDPReg(AP reg 0x03)  
[2025-Oct-23 09:31:36] [trace] [  JLink] - Value=0x00000001
[2025-Oct-23 09:31:36] [trace] [  JLink] - - 0.217ms returns 0  
[2025-Oct-23 09:31:36] [trace] [  JLink] - JLINK_HasError()  
[2025-Oct-23 09:31:36] [ info] [  nRF52] - Protection status read as NONE
[2025-Oct-23 09:31:36] [debug] [  nRF52] - update_device_memory_list
[2025-Oct-23 09:31:36] [debug] [  nRF52] - Just_read_device_version
[2025-Oct-23 09:31:36] [debug] [  nRF52] - Just_readback_status
[2025-Oct-23 09:31:36] [debug] [  nRF52] - Just_is_ctrl_ap_available
[2025-Oct-23 09:31:36] [debug] [SeggerBackend] - read_access_port_register
[2025-Oct-23 09:31:36] [debug] [SeggerBackend] - ---just_read_access_port_register
[2025-Oct-23 09:31:36] [debug] [SeggerBackend] - ---just_select_access_port_register
[2025-Oct-23 09:31:36] [debug] [SeggerBackend] - Select AP 1, DP Bank 0, AP Bank 15
[2025-Oct-23 09:31:36] [trace] [  JLink] - JLINK_CORESIGHT_WriteAPDPReg(DP reg 0x02, 0x010000F0)  
[2025-Oct-23 09:31:36] [debug] [ Client] - erase
[2025-Oct-23 09:31:36] [trace] [  JLink] - - 0.226ms returns 0  
[2025-Oct-23 09:31:36] [trace] [  JLink] - JLINK_HasError()  
[2025-Oct-23 09:31:36] [trace] [  JLink] - JLINK_CORESIGHT_ReadAPDPReg(AP reg 0x03)  
[2025-Oct-23 09:31:36] [trace] [  JLink] - Value=0x02880000
[2025-Oct-23 09:31:36] [trace] [  JLink] - - 0.225ms returns 0  
[2025-Oct-23 09:31:36] [trace] [  JLink] - JLINK_HasError()  
[2025-Oct-23 09:31:36] [debug] [SeggerBackend] - read_access_port_register
[2025-Oct-23 09:31:36] [debug] [SeggerBackend] - ---just_read_access_port_register
[2025-Oct-23 09:31:36] [debug] [SeggerBackend] - ---just_select_access_port_register
[2025-Oct-23 09:31:36] [trace] [  JLink] - JLINK_CORESIGHT_ReadAPDPReg(AP reg 0x03)  
[2025-Oct-23 09:31:36] [trace] [  JLink] - Value=0x02880000
[2025-Oct-23 09:31:36] [trace] [  JLink] - - 0.208ms returns 0  
[2025-Oct-23 09:31:36] [trace] [  JLink] - JLINK_HasError()  
[2025-Oct-23 09:31:36] [debug] [SeggerBackend] - read_access_port_register
[2025-Oct-23 09:31:36] [debug] [SeggerBackend] - ---just_read_access_port_register
[2025-Oct-23 09:31:36] [debug] [SeggerBackend] - ---just_select_access_port_register
[2025-Oct-23 09:31:36] [trace] [  JLink] - JLINK_CORESIGHT_ReadAPDPReg(AP reg 0x03)  
[2025-Oct-23 09:31:36] [trace] [  JLink] - Value=0x02880000
[2025-Oct-23 09:31:36] [trace] [  JLink] - - 0.203ms returns 0  
[2025-Oct-23 09:31:36] [trace] [  JLink] - JLINK_HasError()  
[2025-Oct-23 09:31:36] [debug] [SeggerBackend] - read_access_port_register
[2025-Oct-23 09:31:36] [debug] [SeggerBackend] - ---just_read_access_port_register
[2025-Oct-23 09:31:36] [debug] [SeggerBackend] - ---just_select_access_port_register
[2025-Oct-23 09:31:36] [trace] [  JLink] - JLINK_CORESIGHT_ReadAPDPReg(AP reg 0x03)  
[2025-Oct-23 09:31:36] [trace] [  JLink] - Value=0x02880000
[2025-Oct-23 09:31:36] [trace] [  JLink] - - 0.238ms returns 0  
[2025-Oct-23 09:31:36] [trace] [  JLink] - JLINK_HasError()  
